
T151C 000:253 SEGGER J-Link V4.54a Log File (0001ms, 0254ms total)
T151C 000:253 DLL Compiled: Sep 17 2012 15:58:45 (0001ms, 0254ms total)
T151C 000:253 Logging started @ 2017-04-01 20:53 (0001ms, 0254ms total)
T151C 000:254 JLINK_SetWarnOutHandler(...) (0000ms, 0254ms total)
T151C 000:254 JLINK_OpenEx(...)
Firmware: J-Link ARM V8 compiled Jan 31 2018 18:34:52
Hardware: V8.00
S/N: 20080643
Feature(s): RDI,FlashDL,FlashBP,JFlash,GDBFull  returns O.K. (0022ms, 0276ms total)
T151C 000:276 JLINK_SetErrorOutHandler(...) (0000ms, 0276ms total)
T151C 000:276 JLINK_ExecCommand("ProjectFile = "C:\Users\DELL\Desktop\ºì°å×Û¿Ø³ÌÐò20170215²âÊÔÕÅ±þÑó\×Û¿Ø³ÌÐò1001zby\JLinkSettings.ini"", ...)  returns 0x00 (0001ms, 0277ms total)
T151C 000:288 JLINK_ExecCommand("Device = STM32F207ZG", ...)
                JLINK_ExecCommand("map ram 0x20000000 - 0x2000FFFF", ...)  returns 0x00 (0000ms, 0000ms total)
                JLINK_AddMirrorAreaEx(Addr = 0x00000000, Size = 0x00000000) (0001ms, 0001ms total)
              Device "STM32F207ZG" selected (1024 KB flash, 64 KB RAM).  returns 0x00 (0023ms, 0301ms total)
T151C 000:311 JLINK_ExecCommand("DisableConnectionTimeout", ...)  returns 0x00 (0000ms, 0301ms total)
T151C 000:311 JLINK_TIF_Select(JLINKARM_TIF_SWD)  returns 0x00 (0002ms, 0303ms total)
T151C 000:313 JLINK_SetSpeed(1000) (0000ms, 0303ms total)
T151C 000:313 JLINK_GetHardwareVersion()  returns 0x13880 (0000ms, 0303ms total)
T151C 000:313 JLINK_GetDLLVersion()  returns 45401 (0000ms, 0303ms total)
T151C 000:313 JLINK_GetFirmwareString(...) (0000ms, 0303ms total)
T151C 000:328 JLINK_GetDLLVersion()  returns 45401 (0000ms, 0303ms total)
T151C 000:328 JLINK_GetCompileDateTime() (0000ms, 0303ms total)
T151C 000:333 JLINK_GetFirmwareString(...) (0000ms, 0303ms total)
T151C 000:338 JLINK_GetHardwareVersion()  returns 0x13880 (0000ms, 0303ms total)
T151C 000:363 JLINK_GetId() >0x108 TIF>Found SWD-DP with ID 0x2BA01477 >0x0D TIF> >0x28 TIF> >0x0D TIF> >0x28 TIF> >0x0D TIF> >0x21 TIF> >0x0D TIF> >0x28 TIF> >0x0D TIF> >0x28 TIF> >0x0D TIF> >0x28 TIF> >0x0D TIF> >0x21 TIF> >0x0D TIF> >0x21 TIF> >0x0D TIF> >0x28 TIF> >0x0D TIF> >0x21 TIF> >0x0D TIF> >0x21 TIF> >0x0D TIF> >0x28 TIF> >0x0D TIF> >0x28 TIF> >0x0D TIF> >0x28 TIF> >0x0D TIF> >0x21 TIF> >0x0D TIF> >0x21 TIF> >0x0D TIF> >0x28 TIF> >0x0D TIF> >0x28 TIF> >0x108 TIF>Found SWD-DP with ID 0x2BA01477
 >0x0D TIF> >0x21 TIF> >0x0D TIF> >0x28 TIF> >0x0D TIF> >0x28 TIF> >0x0D TIF> >0x21 TIF> >0x0D TIF> >0x21 TIF> >0x0D TIF> >0x28 TIF> >0x0D TIF> >0x21 TIF> >0x0D TIF> >0x21 TIF> >0x0D TIF> >0x21 TIF> >0x0D TIF> >0x21 TIF> >0x0D TIF> >0x28 TIF> >0x0D TIF> >0x21 TIF> >0x0D TIF> >0x28 TIF> >0x0D TIF> >0x28 TIF> >0x0D TIF> >0x21 TIF> >0x0D TIF> >0x21 TIF> >0x0D TIF> >0x28 TIF> >0x0D TIF> >0x21 TIF> >0x0D TIF> >0x21 TIF> >0x0D TIF> >0x28 TIF> >0x0D TIF> >0x28 TIF> >0x0D TIF> >0x28 TIF> >0x0D TIF> >0x21 TIF>
 >0x0D TIF> >0x21 TIF> >0x0D TIF> >0x28 TIF> >0x0D TIF> >0x28 TIF> >0x0D TIF> >0x28 TIF> >0x0D TIF> >0x28 TIF> >0x0D TIF> >0x28 TIF> >0x0D TIF> >0x21 TIF> >0x0D TIF> >0x21 TIF> >0x0D TIF> >0x21 TIF>TPIU fitted.ETM fitted. >0x0D TIF> >0x28 TIF> >0x0D TIF> >0x21 TIF> >0x0D TIF> >0x21 TIF> >0x0D TIF> >0x28 TIF> >0x0D TIF> >0x21 TIF> >0x0D TIF> >0x21 TIF>FPUnit: 6 code (BP) slots and 2 literal slots >0x0D TIF> >0x28 TIF> >0x0D TIF> >0x21 TIF> >0x0D TIF> >0x21 TIF> >0x0D TIF> >0x28 TIF> >0x0D TIF> >0x28 TIF>
 >0x0D TIF> >0x28 TIF> >0x0D TIF> >0x21 TIF> >0x0D TIF> >0x21 TIF> >0x0D TIF> >0x28 TIF> >0x0D TIF> >0x21 TIF> >0x0D TIF> >0x21 TIF> >0x0D TIF> >0x28 TIF> >0x0D TIF> >0x21 TIF> >0x0D TIF> >0x21 TIF>Found Cortex-M3 r2p0, Little endian. >0x0D TIF> >0x28 TIF> >0x0D TIF> >0x21 TIF>  returns 0x2BA01477 (0093ms, 0396ms total)
T151C 000:456 JLINK_GetDeviceFamily()  returns 3 (0000ms, 0396ms total)
T151C 000:461 JLINK_ReadMem (0xE00FFFF0, 0x0010 Bytes, ...) -- CPU is running -- CPU_ReadMem(16 bytes @ 0xE00FFFF0) -- Data:  0D 00 00 00 10 00 00 00 05 00 00 00 B1 00 00 00  returns 0x00 (0001ms, 0397ms total)
T151C 000:462 JLINK_ReadMem (0xE00FFFD0, 0x0020 Bytes, ...) -- CPU is running -- CPU_ReadMem(32 bytes @ 0xE00FFFD0) -- Data:  00 00 00 00 00 00 00 00 00 00 00 00 00 00 00 00 ...  returns 0x00 (0002ms, 0399ms total)
T151C 000:464 JLINK_ReadMem (0xE00FF000, 0x0018 Bytes, ...) -- CPU is running -- CPU_ReadMem(24 bytes @ 0xE00FF000) -- Data:  03 F0 F0 FF 03 20 F0 FF 03 30 F0 FF 03 10 F0 FF ...  returns 0x00 (0001ms, 0400ms total)
T151C 000:465 JLINK_ReadMemU32(0xE000ED00, 0x0001 Items, ...) -- CPU is running -- CPU_ReadMem(4 bytes @ 0xE000ED00) -- Data:  30 C2 2F 41  returns 0x01 (0002ms, 0402ms total)
T151C 000:467 JLINK_SetResetType(JLINKARM_RESET_TYPE_NORMAL)  returns JLINKARM_RESET_TYPE_NORMAL (0000ms, 0402ms total)
T151C 000:467 JLINK_Reset() -- CPU_WriteMem(4 bytes @ 0xE0002000) (0016ms, 0418ms total)
T151C 000:483 JLINK_Halt()  returns 0x00 (0000ms, 0418ms total)
T151C 000:483 JLINK_IsHalted()  returns TRUE (0000ms, 0418ms total)
T151C 000:483 JLINK_ReadMemU32(0xE000EDF0, 0x0001 Items, ...) -- CPU_ReadMem(4 bytes @ 0xE000EDF0) -- Data:  03 00 03 00  returns 0x01 (0001ms, 0419ms total)
T151C 000:484 JLINK_WriteU32(0xE000EDF0, 0xA05F0003) -- CPU_WriteMem(4 bytes @ 0xE000EDF0)  returns 0x00 (0001ms, 0420ms total)
T151C 000:485 JLINK_WriteU32(0xE000EDFC, 0x01000000) -- CPU_WriteMem(4 bytes @ 0xE000EDFC)  returns 0x00 (0001ms, 0421ms total)
T151C 000:519 JLINK_GetHWStatus(...)  returns 0x00 (0000ms, 0421ms total)
T151C 000:542 JLINK_GetNumBPUnits(Type = 0xFFFFFF00)  returns 0x06 (0000ms, 0421ms total)
T151C 000:542 JLINK_GetNumBPUnits(Type = 0xF0)  returns 0x2000 (0000ms, 0421ms total)
T151C 000:542 JLINK_GetNumWPUnits()  returns 0x04 (0000ms, 0421ms total)
T151C 000:557 JLINK_GetSpeed()  returns 0x3E8 (0000ms, 0421ms total)
T151C 000:567 JLINK_ReadMemU32(0xE000E004, 0x0001 Items, ...) -- CPU_ReadMem(4 bytes @ 0xE000E004) -- Data:  02 00 00 00  returns 0x01 (0001ms, 0422ms total)
T151C 000:568 JLINK_ReadMemU32(0xE000E004, 0x0001 Items, ...) -- CPU_ReadMem(4 bytes @ 0xE000E004) -- Data:  02 00 00 00  returns 0x01 (0001ms, 0423ms total)
T151C 000:569 JLINK_WriteMem(0xE0001000, 0x001C Bytes, ...) -- Data:  01 00 00 00 00 00 00 00 00 00 00 00 00 00 00 00 ... -- CPU_WriteMem(28 bytes @ 0xE0001000)  returns 0x1C (0001ms, 0424ms total)
T151C 000:570 JLINK_ReadMem (0xE0001000, 0x001C Bytes, ...) -- CPU_ReadMem(28 bytes @ 0xE0001000) -- Data:  01 00 00 40 00 00 00 00 00 00 00 00 00 00 00 00 ...  returns 0x00 (0002ms, 0426ms total)
T151C 000:572 JLINK_Halt()  returns 0x00 (0001ms, 0427ms total)
T151C 000:573 JLINK_IsHalted()  returns TRUE (0000ms, 0427ms total)
T151C 000:579 JLINK_WriteMem(0x20000000, 0x0180 Bytes, ...) -- Data:  00 BE 0A E0 0D 78 2D 06 68 40 08 24 40 00 00 D3 ... -- CPU_WriteMem(384 bytes @ 0x20000000)  returns 0x180 (0007ms, 0434ms total)
T151C 000:587 JLINK_WriteReg(R0, 0x08000000)  returns 0x00 (0000ms, 0434ms total)
T151C 000:587 JLINK_WriteReg(R1, 0x017D7840)  returns 0x00 (0000ms, 0434ms total)
T151C 000:587 JLINK_WriteReg(R2, 0x00000001)  returns 0x00 (0000ms, 0434ms total)
T151C 000:587 JLINK_WriteReg(R3, 0x00000000)  returns 0x00 (0000ms, 0434ms total)
T151C 000:587 JLINK_WriteReg(R4, 0x00000000)  returns 0x00 (0000ms, 0434ms total)
T151C 000:587 JLINK_WriteReg(R5, 0x00000000)  returns 0x00 (0000ms, 0434ms total)
T151C 000:587 JLINK_WriteReg(R6, 0x00000000)  returns 0x00 (0000ms, 0434ms total)
T151C 000:587 JLINK_WriteReg(R7, 0x00000000)  returns 0x00 (0000ms, 0434ms total)
T151C 000:587 JLINK_WriteReg(R8, 0x00000000)  returns 0x00 (0000ms, 0434ms total)
T151C 000:587 JLINK_WriteReg(R9, 0x2000017C)  returns 0x00 (0000ms, 0434ms total)
T151C 000:587 JLINK_WriteReg(R10, 0x00000000)  returns 0x00 (0000ms, 0434ms total)
T151C 000:587 JLINK_WriteReg(R11, 0x00000000)  returns 0x00 (0000ms, 0434ms total)
T151C 000:587 JLINK_WriteReg(R12, 0x00000000)  returns 0x00 (0000ms, 0434ms total)
T151C 000:587 JLINK_WriteReg(R13, 0x20000800)  returns 0x00 (0000ms, 0434ms total)
T151C 000:587 JLINK_WriteReg(R14, 0x20000001)  returns 0x00 (0001ms, 0435ms total)
T151C 000:588 JLINK_WriteReg(R15, 0x20000054)  returns 0x00 (0000ms, 0435ms total)
T151C 000:588 JLINK_WriteReg(XPSR, 0x01000000)  returns 0x00 (0000ms, 0435ms total)
T151C 000:588 JLINK_WriteReg(MSP, 0x20000800)  returns 0x00 (0000ms, 0435ms total)
T151C 000:588 JLINK_WriteReg(PSP, 0x20000800)  returns 0x00 (0000ms, 0435ms total)
T151C 000:588 JLINK_WriteReg(CFBP, 0x00000000)  returns 0x00 (0000ms, 0435ms total)
T151C 000:588 JLINK_SetBPEx(Addr = 0x20000000, Type = 0xFFFFFFF2) -- CPU_ReadMem(2 bytes @ 0x20000000)  returns 0x00000001 (0001ms, 0436ms total)
T151C 000:589 JLINK_Go() -- CPU_WriteMem(2 bytes @ 0x20000000) -- CPU_WriteMem(4 bytes @ 0xE0002008) -- CPU_WriteMem(4 bytes @ 0xE000200C) -- CPU_WriteMem(4 bytes @ 0xE0002010) -- CPU_WriteMem(4 bytes @ 0xE0002014) -- CPU_WriteMem(4 bytes @ 0xE0002018) -- CPU_WriteMem(4 bytes @ 0xE000201C) (0010ms, 0446ms total)
T151C 000:599 JLINK_IsHalted() -- CPU_ReadMem(2 bytes @ 0x20000000)  returns TRUE (0007ms, 0453ms total)
T151C 000:606 JLINK_ReadReg(R15)  returns 0x20000000 (0000ms, 0446ms total)
T151C 000:606 JLINK_ClrBPEx(BPHandle = 0x00000001)  returns 0x00 (0000ms, 0446ms total)
T151C 000:606 JLINK_ReadReg(R0)  returns 0x00000000 (0000ms, 0446ms total)
T151C 000:607 JLINK_WriteReg(R0, 0x08000000)  returns 0x00 (0001ms, 0447ms total)
T151C 000:608 JLINK_WriteReg(R1, 0x00004000)  returns 0x00 (0000ms, 0447ms total)
T151C 000:608 JLINK_WriteReg(R2, 0x000000FF)  returns 0x00 (0000ms, 0447ms total)
T151C 000:608 JLINK_WriteReg(R3, 0x00000000)  returns 0x00 (0000ms, 0447ms total)
T151C 000:608 JLINK_WriteReg(R4, 0x00000000)  returns 0x00 (0000ms, 0447ms total)
T151C 000:608 JLINK_WriteReg(R5, 0x00000000)  returns 0x00 (0000ms, 0447ms total)
T151C 000:608 JLINK_WriteReg(R6, 0x00000000)  returns 0x00 (0000ms, 0447ms total)
T151C 000:608 JLINK_WriteReg(R7, 0x00000000)  returns 0x00 (0000ms, 0447ms total)
T151C 000:608 JLINK_WriteReg(R8, 0x00000000)  returns 0x00 (0000ms, 0447ms total)
T151C 000:608 JLINK_WriteReg(R9, 0x2000017C)  returns 0x00 (0001ms, 0448ms total)
T151C 000:609 JLINK_WriteReg(R10, 0x00000000)  returns 0x00 (0000ms, 0448ms total)
T151C 000:609 JLINK_WriteReg(R11, 0x00000000)  returns 0x00 (0000ms, 0448ms total)
T151C 000:609 JLINK_WriteReg(R12, 0x00000000)  returns 0x00 (0000ms, 0448ms total)
T151C 000:609 JLINK_WriteReg(R13, 0x20000800)  returns 0x00 (0000ms, 0448ms total)
T151C 000:609 JLINK_WriteReg(R14, 0x20000001)  returns 0x00 (0000ms, 0448ms total)
T151C 000:609 JLINK_WriteReg(R15, 0x20000020)  returns 0x00 (0000ms, 0448ms total)
T151C 000:609 JLINK_WriteReg(XPSR, 0x01000000)  returns 0x00 (0000ms, 0448ms total)
T151C 000:609 JLINK_WriteReg(MSP, 0x20000800)  returns 0x00 (0000ms, 0448ms total)
T151C 000:609 JLINK_WriteReg(PSP, 0x20000800)  returns 0x00 (0000ms, 0448ms total)
T151C 000:609 JLINK_WriteReg(CFBP, 0x00000000)  returns 0x00 (0000ms, 0448ms total)
T151C 000:609 JLINK_SetBPEx(Addr = 0x20000000, Type = 0xFFFFFFF2)  returns 0x00000002 (0000ms, 0448ms total)
T151C 000:609 JLINK_Go() (0003ms, 0451ms total)
T151C 000:612 JLINK_IsHalted() -- CPU_ReadMem(2 bytes @ 0x20000000)  returns TRUE (0006ms, 0457ms total)
T151C 000:618 JLINK_ReadReg(R15)  returns 0x20000000 (0000ms, 0451ms total)
T151C 000:618 JLINK_ClrBPEx(BPHandle = 0x00000002)  returns 0x00 (0000ms, 0451ms total)
T151C 000:618 JLINK_ReadReg(R0)  returns 0x00000001 (0001ms, 0452ms total)
T151C 000:619 JLINK_WriteReg(R0, 0x08000000)  returns 0x00 (0000ms, 0452ms total)
T151C 000:619 JLINK_WriteReg(R1, 0x00004000)  returns 0x00 (0000ms, 0452ms total)
T151C 000:619 JLINK_WriteReg(R2, 0x000000FF)  returns 0x00 (0000ms, 0452ms total)
T151C 000:619 JLINK_WriteReg(R3, 0x00000000)  returns 0x00 (0000ms, 0452ms total)
T151C 000:619 JLINK_WriteReg(R4, 0x00000000)  returns 0x00 (0000ms, 0452ms total)
T151C 000:619 JLINK_WriteReg(R5, 0x00000000)  returns 0x00 (0000ms, 0452ms total)
T151C 000:619 JLINK_WriteReg(R6, 0x00000000)  returns 0x00 (0000ms, 0452ms total)
T151C 000:619 JLINK_WriteReg(R7, 0x00000000)  returns 0x00 (0000ms, 0452ms total)
T151C 000:619 JLINK_WriteReg(R8, 0x00000000)  returns 0x00 (0000ms, 0452ms total)
T151C 000:619 JLINK_WriteReg(R9, 0x2000017C)  returns 0x00 (0000ms, 0452ms total)
T151C 000:619 JLINK_WriteReg(R10, 0x00000000)  returns 0x00 (0000ms, 0452ms total)
T151C 000:619 JLINK_WriteReg(R11, 0x00000000)  returns 0x00 (0000ms, 0452ms total)
T151C 000:619 JLINK_WriteReg(R12, 0x00000000)  returns 0x00 (0000ms, 0452ms total)
T151C 000:619 JLINK_WriteReg(R13, 0x20000800)  returns 0x00 (0001ms, 0453ms total)
T151C 000:620 JLINK_WriteReg(R14, 0x20000001)  returns 0x00 (0000ms, 0453ms total)
T151C 000:620 JLINK_WriteReg(R15, 0x200000BC)  returns 0x00 (0000ms, 0453ms total)
T151C 000:620 JLINK_WriteReg(XPSR, 0x01000000)  returns 0x00 (0000ms, 0453ms total)
T151C 000:620 JLINK_WriteReg(MSP, 0x20000800)  returns 0x00 (0000ms, 0453ms total)
T151C 000:620 JLINK_WriteReg(PSP, 0x20000800)  returns 0x00 (0000ms, 0453ms total)
T151C 000:620 JLINK_WriteReg(CFBP, 0x00000000)  returns 0x00 (0000ms, 0453ms total)
T151C 000:620 JLINK_SetBPEx(Addr = 0x20000000, Type = 0xFFFFFFF2)  returns 0x00000003 (0000ms, 0453ms total)
T151C 000:620 JLINK_Go() (0003ms, 0456ms total)
T151C 000:623 JLINK_IsHalted()  returns FALSE (0001ms, 0457ms total)
T151C 000:675 JLINK_IsHalted()  returns FALSE (0001ms, 0457ms total)
T151C 000:727 JLINK_IsHalted()  returns FALSE (0001ms, 0457ms total)
T151C 000:780 JLINK_IsHalted()  returns FALSE (0000ms, 0456ms total)
T151C 000:831 JLINK_IsHalted()  returns FALSE (0001ms, 0457ms total)
T151C 000:883 JLINK_IsHalted()  returns FALSE (0001ms, 0457ms total)
T151C 000:934 JLINK_IsHalted()  returns FALSE (0001ms, 0457ms total)
T151C 000:986 JLINK_IsHalted() -- CPU_ReadMem(2 bytes @ 0x20000000)  returns TRUE (0007ms, 0463ms total)
T151C 000:993 JLINK_ReadReg(R15)  returns 0x20000000 (0000ms, 0456ms total)
T151C 000:993 JLINK_ClrBPEx(BPHandle = 0x00000003)  returns 0x00 (0000ms, 0456ms total)
T151C 000:993 JLINK_ReadReg(R0)  returns 0x00000000 (0000ms, 0456ms total)
T151C 000:994 JLINK_WriteReg(R0, 0x08004000)  returns 0x00 (0000ms, 0456ms total)
T151C 000:995 JLINK_WriteReg(R1, 0x00004000)  returns 0x00 (0000ms, 0456ms total)
T151C 000:995 JLINK_WriteReg(R2, 0x000000FF)  returns 0x00 (0000ms, 0456ms total)
T151C 000:995 JLINK_WriteReg(R3, 0x00000000)  returns 0x00 (0000ms, 0456ms total)
T151C 000:995 JLINK_WriteReg(R4, 0x00000000)  returns 0x00 (0000ms, 0456ms total)
T151C 000:995 JLINK_WriteReg(R5, 0x00000000)  returns 0x00 (0000ms, 0456ms total)
T151C 000:995 JLINK_WriteReg(R6, 0x00000000)  returns 0x00 (0000ms, 0456ms total)
T151C 000:995 JLINK_WriteReg(R7, 0x00000000)  returns 0x00 (0000ms, 0456ms total)
T151C 000:995 JLINK_WriteReg(R8, 0x00000000)  returns 0x00 (0000ms, 0456ms total)
T151C 000:995 JLINK_WriteReg(R9, 0x2000017C)  returns 0x00 (0000ms, 0456ms total)
T151C 000:995 JLINK_WriteReg(R10, 0x00000000)  returns 0x00 (0000ms, 0456ms total)
T151C 000:995 JLINK_WriteReg(R11, 0x00000000)  returns 0x00 (0000ms, 0456ms total)
T151C 000:995 JLINK_WriteReg(R12, 0x00000000)  returns 0x00 (0000ms, 0456ms total)
T151C 000:995 JLINK_WriteReg(R13, 0x20000800)  returns 0x00 (0000ms, 0456ms total)
T151C 000:995 JLINK_WriteReg(R14, 0x20000001)  returns 0x00 (0000ms, 0456ms total)
T151C 000:995 JLINK_WriteReg(R15, 0x20000020)  returns 0x00 (0000ms, 0456ms total)
T151C 000:996 JLINK_WriteReg(XPSR, 0x01000000)  returns 0x00 (0000ms, 0457ms total)
T151C 000:996 JLINK_WriteReg(MSP, 0x20000800)  returns 0x00 (0000ms, 0457ms total)
T151C 000:996 JLINK_WriteReg(PSP, 0x20000800)  returns 0x00 (0000ms, 0457ms total)
T151C 000:996 JLINK_WriteReg(CFBP, 0x00000000)  returns 0x00 (0000ms, 0457ms total)
T151C 000:996 JLINK_SetBPEx(Addr = 0x20000000, Type = 0xFFFFFFF2)  returns 0x00000004 (0000ms, 0457ms total)
T151C 000:996 JLINK_Go() (0003ms, 0460ms total)
T151C 000:999 JLINK_IsHalted() -- CPU_ReadMem(2 bytes @ 0x20000000)  returns TRUE (0007ms, 0467ms total)
T151C 001:006 JLINK_ReadReg(R15)  returns 0x20000000 (0001ms, 0461ms total)
T151C 001:007 JLINK_ClrBPEx(BPHandle = 0x00000004)  returns 0x00 (0000ms, 0461ms total)
T151C 001:007 JLINK_ReadReg(R0)  returns 0x00000001 (0000ms, 0461ms total)
T151C 001:007 JLINK_WriteReg(R0, 0x08004000)  returns 0x00 (0000ms, 0461ms total)
T151C 001:008 JLINK_WriteReg(R1, 0x00004000)  returns 0x00 (0000ms, 0461ms total)
T151C 001:008 JLINK_WriteReg(R2, 0x000000FF)  returns 0x00 (0000ms, 0461ms total)
T151C 001:008 JLINK_WriteReg(R3, 0x00000000)  returns 0x00 (0000ms, 0461ms total)
T151C 001:008 JLINK_WriteReg(R4, 0x00000000)  returns 0x00 (0001ms, 0462ms total)
T151C 001:009 JLINK_WriteReg(R5, 0x00000000)  returns 0x00 (0000ms, 0462ms total)
T151C 001:009 JLINK_WriteReg(R6, 0x00000000)  returns 0x00 (0000ms, 0462ms total)
T151C 001:009 JLINK_WriteReg(R7, 0x00000000)  returns 0x00 (0000ms, 0462ms total)
T151C 001:009 JLINK_WriteReg(R8, 0x00000000)  returns 0x00 (0000ms, 0462ms total)
T151C 001:009 JLINK_WriteReg(R9, 0x2000017C)  returns 0x00 (0000ms, 0462ms total)
T151C 001:009 JLINK_WriteReg(R10, 0x00000000)  returns 0x00 (0000ms, 0462ms total)
T151C 001:009 JLINK_WriteReg(R11, 0x00000000)  returns 0x00 (0000ms, 0462ms total)
T151C 001:009 JLINK_WriteReg(R12, 0x00000000)  returns 0x00 (0000ms, 0462ms total)
T151C 001:009 JLINK_WriteReg(R13, 0x20000800)  returns 0x00 (0001ms, 0463ms total)
T151C 001:010 JLINK_WriteReg(R14, 0x20000001)  returns 0x00 (0000ms, 0463ms total)
T151C 001:010 JLINK_WriteReg(R15, 0x200000BC)  returns 0x00 (0000ms, 0463ms total)
T151C 001:010 JLINK_WriteReg(XPSR, 0x01000000)  returns 0x00 (0000ms, 0463ms total)
T151C 001:010 JLINK_WriteReg(MSP, 0x20000800)  returns 0x00 (0000ms, 0463ms total)
T151C 001:010 JLINK_WriteReg(PSP, 0x20000800)  returns 0x00 (0000ms, 0463ms total)
T151C 001:010 JLINK_WriteReg(CFBP, 0x00000000)  returns 0x00 (0000ms, 0463ms total)
T151C 001:010 JLINK_SetBPEx(Addr = 0x20000000, Type = 0xFFFFFFF2)  returns 0x00000005 (0000ms, 0463ms total)
T151C 001:010 JLINK_Go() (0003ms, 0466ms total)
T151C 001:013 JLINK_IsHalted()  returns FALSE (0001ms, 0467ms total)
T151C 001:065 JLINK_IsHalted()  returns FALSE (0001ms, 0467ms total)
T151C 001:117 JLINK_IsHalted()  returns FALSE (0001ms, 0467ms total)
T151C 001:168 JLINK_IsHalted()  returns FALSE (0001ms, 0467ms total)
T151C 001:220 JLINK_IsHalted()  returns FALSE (0001ms, 0467ms total)
T151C 001:272 JLINK_IsHalted()  returns FALSE (0000ms, 0466ms total)
T151C 001:323 JLINK_IsHalted()  returns FALSE (0001ms, 0467ms total)
T151C 001:375 JLINK_IsHalted() -- CPU_ReadMem(2 bytes @ 0x20000000)  returns TRUE (0006ms, 0472ms total)
T151C 001:381 JLINK_ReadReg(R15)  returns 0x20000000 (0000ms, 0466ms total)
T151C 001:381 JLINK_ClrBPEx(BPHandle = 0x00000005)  returns 0x00 (0001ms, 0467ms total)
T151C 001:382 JLINK_ReadReg(R0)  returns 0x00000000 (0000ms, 0467ms total)
T151C 001:384 JLINK_WriteReg(R0, 0x08008000)  returns 0x00 (0000ms, 0467ms total)
T151C 001:384 JLINK_WriteReg(R1, 0x00004000)  returns 0x00 (0000ms, 0467ms total)
T151C 001:384 JLINK_WriteReg(R2, 0x000000FF)  returns 0x00 (0000ms, 0467ms total)
T151C 001:384 JLINK_WriteReg(R3, 0x00000000)  returns 0x00 (0000ms, 0467ms total)
T151C 001:384 JLINK_WriteReg(R4, 0x00000000)  returns 0x00 (0000ms, 0467ms total)
T151C 001:384 JLINK_WriteReg(R5, 0x00000000)  returns 0x00 (0000ms, 0467ms total)
T151C 001:384 JLINK_WriteReg(R6, 0x00000000)  returns 0x00 (0000ms, 0467ms total)
T151C 001:384 JLINK_WriteReg(R7, 0x00000000)  returns 0x00 (0000ms, 0467ms total)
T151C 001:384 JLINK_WriteReg(R8, 0x00000000)  returns 0x00 (0000ms, 0467ms total)
T151C 001:384 JLINK_WriteReg(R9, 0x2000017C)  returns 0x00 (0000ms, 0467ms total)
T151C 001:384 JLINK_WriteReg(R10, 0x00000000)  returns 0x00 (0000ms, 0467ms total)
T151C 001:384 JLINK_WriteReg(R11, 0x00000000)  returns 0x00 (0000ms, 0467ms total)
T151C 001:384 JLINK_WriteReg(R12, 0x00000000)  returns 0x00 (0001ms, 0468ms total)
T151C 001:385 JLINK_WriteReg(R13, 0x20000800)  returns 0x00 (0000ms, 0468ms total)
T151C 001:385 JLINK_WriteReg(R14, 0x20000001)  returns 0x00 (0000ms, 0468ms total)
T151C 001:385 JLINK_WriteReg(R15, 0x20000020)  returns 0x00 (0000ms, 0468ms total)
T151C 001:385 JLINK_WriteReg(XPSR, 0x01000000)  returns 0x00 (0000ms, 0468ms total)
T151C 001:385 JLINK_WriteReg(MSP, 0x20000800)  returns 0x00 (0000ms, 0468ms total)
T151C 001:385 JLINK_WriteReg(PSP, 0x20000800)  returns 0x00 (0000ms, 0468ms total)
T151C 001:385 JLINK_WriteReg(CFBP, 0x00000000)  returns 0x00 (0000ms, 0468ms total)
T151C 001:385 JLINK_SetBPEx(Addr = 0x20000000, Type = 0xFFFFFFF2)  returns 0x00000006 (0000ms, 0468ms total)
T151C 001:385 JLINK_Go() (0003ms, 0471ms total)
T151C 001:388 JLINK_IsHalted() -- CPU_ReadMem(2 bytes @ 0x20000000)  returns TRUE (0007ms, 0478ms total)
T151C 001:395 JLINK_ReadReg(R15)  returns 0x20000000 (0000ms, 0471ms total)
T151C 001:395 JLINK_ClrBPEx(BPHandle = 0x00000006)  returns 0x00 (0000ms, 0471ms total)
T151C 001:395 JLINK_ReadReg(R0)  returns 0x00000001 (0000ms, 0471ms total)
T151C 001:395 JLINK_WriteReg(R0, 0x08008000)  returns 0x00 (0000ms, 0471ms total)
T151C 001:395 JLINK_WriteReg(R1, 0x00004000)  returns 0x00 (0000ms, 0471ms total)
T151C 001:395 JLINK_WriteReg(R2, 0x000000FF)  returns 0x00 (0001ms, 0472ms total)
T151C 001:396 JLINK_WriteReg(R3, 0x00000000)  returns 0x00 (0000ms, 0472ms total)
T151C 001:396 JLINK_WriteReg(R4, 0x00000000)  returns 0x00 (0000ms, 0472ms total)
T151C 001:396 JLINK_WriteReg(R5, 0x00000000)  returns 0x00 (0000ms, 0472ms total)
T151C 001:396 JLINK_WriteReg(R6, 0x00000000)  returns 0x00 (0000ms, 0472ms total)
T151C 001:396 JLINK_WriteReg(R7, 0x00000000)  returns 0x00 (0000ms, 0472ms total)
T151C 001:396 JLINK_WriteReg(R8, 0x00000000)  returns 0x00 (0000ms, 0472ms total)
T151C 001:396 JLINK_WriteReg(R9, 0x2000017C)  returns 0x00 (0000ms, 0472ms total)
T151C 001:396 JLINK_WriteReg(R10, 0x00000000)  returns 0x00 (0000ms, 0472ms total)
T151C 001:396 JLINK_WriteReg(R11, 0x00000000)  returns 0x00 (0000ms, 0472ms total)
T151C 001:397 JLINK_WriteReg(R12, 0x00000000)  returns 0x00 (0000ms, 0473ms total)
T151C 001:397 JLINK_WriteReg(R13, 0x20000800)  returns 0x00 (0000ms, 0473ms total)
T151C 001:397 JLINK_WriteReg(R14, 0x20000001)  returns 0x00 (0000ms, 0473ms total)
T151C 001:397 JLINK_WriteReg(R15, 0x200000BC)  returns 0x00 (0000ms, 0473ms total)
T151C 001:397 JLINK_WriteReg(XPSR, 0x01000000)  returns 0x00 (0000ms, 0473ms total)
T151C 001:397 JLINK_WriteReg(MSP, 0x20000800)  returns 0x00 (0000ms, 0473ms total)
T151C 001:397 JLINK_WriteReg(PSP, 0x20000800)  returns 0x00 (0000ms, 0473ms total)
T151C 001:397 JLINK_WriteReg(CFBP, 0x00000000)  returns 0x00 (0000ms, 0473ms total)
T151C 001:397 JLINK_SetBPEx(Addr = 0x20000000, Type = 0xFFFFFFF2)  returns 0x00000007 (0000ms, 0473ms total)
T151C 001:397 JLINK_Go() (0003ms, 0476ms total)
T151C 001:400 JLINK_IsHalted()  returns FALSE (0001ms, 0477ms total)
T151C 001:452 JLINK_IsHalted()  returns FALSE (0001ms, 0477ms total)
T151C 001:503 JLINK_IsHalted()  returns FALSE (0001ms, 0477ms total)
T151C 001:555 JLINK_IsHalted()  returns FALSE (0000ms, 0476ms total)
T151C 001:606 JLINK_IsHalted()  returns FALSE (0001ms, 0477ms total)
T151C 001:657 JLINK_IsHalted()  returns FALSE (0001ms, 0477ms total)
T151C 001:709 JLINK_IsHalted()  returns FALSE (0001ms, 0477ms total)
T151C 001:761 JLINK_IsHalted() -- CPU_ReadMem(2 bytes @ 0x20000000)  returns TRUE (0006ms, 0482ms total)
T151C 001:767 JLINK_ReadReg(R15)  returns 0x20000000 (0001ms, 0477ms total)
T151C 001:768 JLINK_ClrBPEx(BPHandle = 0x00000007)  returns 0x00 (0000ms, 0477ms total)
T151C 001:768 JLINK_ReadReg(R0)  returns 0x00000000 (0000ms, 0477ms total)
T151C 001:769 JLINK_WriteReg(R0, 0x0800C000)  returns 0x00 (0000ms, 0477ms total)
T151C 001:769 JLINK_WriteReg(R1, 0x00004000)  returns 0x00 (0000ms, 0477ms total)
T151C 001:769 JLINK_WriteReg(R2, 0x000000FF)  returns 0x00 (0000ms, 0477ms total)
T151C 001:769 JLINK_WriteReg(R3, 0x00000000)  returns 0x00 (0000ms, 0477ms total)
T151C 001:769 JLINK_WriteReg(R4, 0x00000000)  returns 0x00 (0000ms, 0477ms total)
T151C 001:770 JLINK_WriteReg(R5, 0x00000000)  returns 0x00 (0000ms, 0478ms total)
T151C 001:770 JLINK_WriteReg(R6, 0x00000000)  returns 0x00 (0000ms, 0478ms total)
T151C 001:770 JLINK_WriteReg(R7, 0x00000000)  returns 0x00 (0000ms, 0478ms total)
T151C 001:770 JLINK_WriteReg(R8, 0x00000000)  returns 0x00 (0000ms, 0478ms total)
T151C 001:770 JLINK_WriteReg(R9, 0x2000017C)  returns 0x00 (0000ms, 0478ms total)
T151C 001:770 JLINK_WriteReg(R10, 0x00000000)  returns 0x00 (0000ms, 0478ms total)
T151C 001:770 JLINK_WriteReg(R11, 0x00000000)  returns 0x00 (0000ms, 0478ms total)
T151C 001:770 JLINK_WriteReg(R12, 0x00000000)  returns 0x00 (0000ms, 0478ms total)
T151C 001:770 JLINK_WriteReg(R13, 0x20000800)  returns 0x00 (0000ms, 0478ms total)
T151C 001:770 JLINK_WriteReg(R14, 0x20000001)  returns 0x00 (0001ms, 0479ms total)
T151C 001:771 JLINK_WriteReg(R15, 0x20000020)  returns 0x00 (0000ms, 0479ms total)
T151C 001:771 JLINK_WriteReg(XPSR, 0x01000000)  returns 0x00 (0000ms, 0479ms total)
T151C 001:771 JLINK_WriteReg(MSP, 0x20000800)  returns 0x00 (0000ms, 0479ms total)
T151C 001:771 JLINK_WriteReg(PSP, 0x20000800)  returns 0x00 (0000ms, 0479ms total)
T151C 001:771 JLINK_WriteReg(CFBP, 0x00000000)  returns 0x00 (0000ms, 0479ms total)
T151C 001:771 JLINK_SetBPEx(Addr = 0x20000000, Type = 0xFFFFFFF2)  returns 0x00000008 (0000ms, 0479ms total)
T151C 001:771 JLINK_Go() (0003ms, 0482ms total)
T151C 001:774 JLINK_IsHalted() -- CPU_ReadMem(2 bytes @ 0x20000000)  returns TRUE (0007ms, 0489ms total)
T151C 001:781 JLINK_ReadReg(R15)  returns 0x20000000 (0000ms, 0482ms total)
T151C 001:781 JLINK_ClrBPEx(BPHandle = 0x00000008)  returns 0x00 (0000ms, 0482ms total)
T151C 001:781 JLINK_ReadReg(R0)  returns 0x00000001 (0000ms, 0482ms total)
T151C 001:781 JLINK_WriteReg(R0, 0x0800C000)  returns 0x00 (0000ms, 0482ms total)
T151C 001:781 JLINK_WriteReg(R1, 0x00004000)  returns 0x00 (0000ms, 0482ms total)
T151C 001:781 JLINK_WriteReg(R2, 0x000000FF)  returns 0x00 (0000ms, 0482ms total)
T151C 001:781 JLINK_WriteReg(R3, 0x00000000)  returns 0x00 (0001ms, 0483ms total)
T151C 001:782 JLINK_WriteReg(R4, 0x00000000)  returns 0x00 (0000ms, 0483ms total)
T151C 001:782 JLINK_WriteReg(R5, 0x00000000)  returns 0x00 (0000ms, 0483ms total)
T151C 001:782 JLINK_WriteReg(R6, 0x00000000)  returns 0x00 (0000ms, 0483ms total)
T151C 001:782 JLINK_WriteReg(R7, 0x00000000)  returns 0x00 (0000ms, 0483ms total)
T151C 001:782 JLINK_WriteReg(R8, 0x00000000)  returns 0x00 (0000ms, 0483ms total)
T151C 001:782 JLINK_WriteReg(R9, 0x2000017C)  returns 0x00 (0000ms, 0483ms total)
T151C 001:782 JLINK_WriteReg(R10, 0x00000000)  returns 0x00 (0000ms, 0483ms total)
T151C 001:782 JLINK_WriteReg(R11, 0x00000000)  returns 0x00 (0000ms, 0483ms total)
T151C 001:782 JLINK_WriteReg(R12, 0x00000000)  returns 0x00 (0001ms, 0484ms total)
T151C 001:783 JLINK_WriteReg(R13, 0x20000800)  returns 0x00 (0000ms, 0484ms total)
T151C 001:783 JLINK_WriteReg(R14, 0x20000001)  returns 0x00 (0000ms, 0484ms total)
T151C 001:783 JLINK_WriteReg(R15, 0x200000BC)  returns 0x00 (0000ms, 0484ms total)
T151C 001:783 JLINK_WriteReg(XPSR, 0x01000000)  returns 0x00 (0000ms, 0484ms total)
T151C 001:783 JLINK_WriteReg(MSP, 0x20000800)  returns 0x00 (0000ms, 0484ms total)
T151C 001:783 JLINK_WriteReg(PSP, 0x20000800)  returns 0x00 (0000ms, 0484ms total)
T151C 001:783 JLINK_WriteReg(CFBP, 0x00000000)  returns 0x00 (0000ms, 0484ms total)
T151C 001:783 JLINK_SetBPEx(Addr = 0x20000000, Type = 0xFFFFFFF2)  returns 0x00000009 (0001ms, 0485ms total)
T151C 001:784 JLINK_Go() (0002ms, 0487ms total)
T151C 001:786 JLINK_IsHalted()  returns FALSE (0001ms, 0488ms total)
T151C 001:837 JLINK_IsHalted()  returns FALSE (0001ms, 0488ms total)
T151C 001:889 JLINK_IsHalted()  returns FALSE (0001ms, 0488ms total)
T151C 001:941 JLINK_IsHalted()  returns FALSE (0000ms, 0487ms total)
T151C 001:992 JLINK_IsHalted()  returns FALSE (0001ms, 0488ms total)
T151C 002:044 JLINK_IsHalted()  returns FALSE (0001ms, 0488ms total)
T151C 002:096 JLINK_IsHalted()  returns FALSE (0001ms, 0488ms total)
T151C 002:148 JLINK_IsHalted() -- CPU_ReadMem(2 bytes @ 0x20000000)  returns TRUE (0006ms, 0493ms total)
T151C 002:154 JLINK_ReadReg(R15)  returns 0x20000000 (0000ms, 0487ms total)
T151C 002:154 JLINK_ClrBPEx(BPHandle = 0x00000009)  returns 0x00 (0001ms, 0488ms total)
T151C 002:155 JLINK_ReadReg(R0)  returns 0x00000000 (0000ms, 0488ms total)
T151C 002:156 JLINK_WriteReg(R0, 0x00000001)  returns 0x00 (0000ms, 0488ms total)
T151C 002:156 JLINK_WriteReg(R1, 0x00004000)  returns 0x00 (0000ms, 0488ms total)
T151C 002:156 JLINK_WriteReg(R2, 0x000000FF)  returns 0x00 (0000ms, 0488ms total)
T151C 002:156 JLINK_WriteReg(R3, 0x00000000)  returns 0x00 (0000ms, 0488ms total)
T151C 002:156 JLINK_WriteReg(R4, 0x00000000)  returns 0x00 (0000ms, 0488ms total)
T151C 002:156 JLINK_WriteReg(R5, 0x00000000)  returns 0x00 (0000ms, 0488ms total)
T151C 002:156 JLINK_WriteReg(R6, 0x00000000)  returns 0x00 (0000ms, 0488ms total)
T151C 002:156 JLINK_WriteReg(R7, 0x00000000)  returns 0x00 (0000ms, 0488ms total)
T151C 002:156 JLINK_WriteReg(R8, 0x00000000)  returns 0x00 (0000ms, 0488ms total)
T151C 002:156 JLINK_WriteReg(R9, 0x2000017C)  returns 0x00 (0000ms, 0488ms total)
T151C 002:157 JLINK_WriteReg(R10, 0x00000000)  returns 0x00 (0000ms, 0489ms total)
T151C 002:157 JLINK_WriteReg(R11, 0x00000000)  returns 0x00 (0000ms, 0489ms total)
T151C 002:157 JLINK_WriteReg(R12, 0x00000000)  returns 0x00 (0000ms, 0489ms total)
T151C 002:157 JLINK_WriteReg(R13, 0x20000800)  returns 0x00 (0000ms, 0489ms total)
T151C 002:157 JLINK_WriteReg(R14, 0x20000001)  returns 0x00 (0000ms, 0489ms total)
T151C 002:157 JLINK_WriteReg(R15, 0x20000082)  returns 0x00 (0000ms, 0489ms total)
T151C 002:157 JLINK_WriteReg(XPSR, 0x01000000)  returns 0x00 (0000ms, 0489ms total)
T151C 002:157 JLINK_WriteReg(MSP, 0x20000800)  returns 0x00 (0000ms, 0489ms total)
T151C 002:157 JLINK_WriteReg(PSP, 0x20000800)  returns 0x00 (0000ms, 0489ms total)
T151C 002:157 JLINK_WriteReg(CFBP, 0x00000000)  returns 0x00 (0000ms, 0489ms total)
T151C 002:157 JLINK_SetBPEx(Addr = 0x20000000, Type = 0xFFFFFFF2)  returns 0x0000000A (0000ms, 0489ms total)
T151C 002:157 JLINK_Go() (0003ms, 0492ms total)
T151C 002:160 JLINK_IsHalted() -- CPU_ReadMem(2 bytes @ 0x20000000)  returns TRUE (0007ms, 0499ms total)
T151C 002:167 JLINK_ReadReg(R15)  returns 0x20000000 (0000ms, 0492ms total)
T151C 002:167 JLINK_ClrBPEx(BPHandle = 0x0000000A)  returns 0x00 (0000ms, 0492ms total)
T151C 002:167 JLINK_ReadReg(R0)  returns 0x00000000 (0000ms, 0492ms total)
T151C 002:228 JLINK_WriteMem(0x20000000, 0x0180 Bytes, ...) -- Data:  00 BE 0A E0 0D 78 2D 06 68 40 08 24 40 00 00 D3 ... -- CPU_WriteMem(384 bytes @ 0x20000000)  returns 0x180 (0008ms, 0500ms total)
T151C 002:236 JLINK_WriteReg(R0, 0x08000000)  returns 0x00 (0000ms, 0500ms total)
T151C 002:236 JLINK_WriteReg(R1, 0x017D7840)  returns 0x00 (0000ms, 0500ms total)
T151C 002:236 JLINK_WriteReg(R2, 0x00000002)  returns 0x00 (0000ms, 0500ms total)
T151C 002:236 JLINK_WriteReg(R3, 0x00000000)  returns 0x00 (0001ms, 0501ms total)
T151C 002:237 JLINK_WriteReg(R4, 0x00000000)  returns 0x00 (0000ms, 0501ms total)
T151C 002:237 JLINK_WriteReg(R5, 0x00000000)  returns 0x00 (0000ms, 0501ms total)
T151C 002:237 JLINK_WriteReg(R6, 0x00000000)  returns 0x00 (0000ms, 0501ms total)
T151C 002:237 JLINK_WriteReg(R7, 0x00000000)  returns 0x00 (0000ms, 0501ms total)
T151C 002:237 JLINK_WriteReg(R8, 0x00000000)  returns 0x00 (0000ms, 0501ms total)
T151C 002:237 JLINK_WriteReg(R9, 0x2000017C)  returns 0x00 (0000ms, 0501ms total)
T151C 002:237 JLINK_WriteReg(R10, 0x00000000)  returns 0x00 (0000ms, 0501ms total)
T151C 002:237 JLINK_WriteReg(R11, 0x00000000)  returns 0x00 (0000ms, 0501ms total)
T151C 002:237 JLINK_WriteReg(R12, 0x00000000)  returns 0x00 (0001ms, 0502ms total)
T151C 002:238 JLINK_WriteReg(R13, 0x20000800)  returns 0x00 (0000ms, 0502ms total)
T151C 002:238 JLINK_WriteReg(R14, 0x20000001)  returns 0x00 (0000ms, 0502ms total)
T151C 002:238 JLINK_WriteReg(R15, 0x20000054)  returns 0x00 (0000ms, 0502ms total)
T151C 002:238 JLINK_WriteReg(XPSR, 0x01000000)  returns 0x00 (0000ms, 0502ms total)
T151C 002:238 JLINK_WriteReg(MSP, 0x20000800)  returns 0x00 (0000ms, 0502ms total)
T151C 002:238 JLINK_WriteReg(PSP, 0x20000800)  returns 0x00 (0000ms, 0502ms total)
T151C 002:238 JLINK_WriteReg(CFBP, 0x00000000)  returns 0x00 (0000ms, 0502ms total)
T151C 002:238 JLINK_SetBPEx(Addr = 0x20000000, Type = 0xFFFFFFF2) -- CPU_ReadMem(2 bytes @ 0x20000000)  returns 0x0000000B (0002ms, 0504ms total)
T151C 002:240 JLINK_Go() -- CPU_WriteMem(2 bytes @ 0x20000000) (0003ms, 0507ms total)
T151C 002:243 JLINK_IsHalted() -- CPU_ReadMem(2 bytes @ 0x20000000)  returns TRUE (0007ms, 0514ms total)
T151C 002:250 JLINK_ReadReg(R15)  returns 0x20000000 (0000ms, 0507ms total)
T151C 002:250 JLINK_ClrBPEx(BPHandle = 0x0000000B)  returns 0x00 (0000ms, 0507ms total)
T151C 002:250 JLINK_ReadReg(R0)  returns 0x00000000 (0000ms, 0507ms total)
T151C 002:251 JLINK_WriteMem(0x20000180, 0x0400 Bytes, ...) -- Data:  C8 15 00 20 39 A1 00 08 E5 0D 00 08 E7 0D 00 08 ... -- CPU_WriteMem(1024 bytes @ 0x20000180)  returns 0x400 (0017ms, 0524ms total)
T151C 002:268 JLINK_WriteReg(R0, 0x08000000)  returns 0x00 (0001ms, 0525ms total)
T151C 002:269 JLINK_WriteReg(R1, 0x00000400)  returns 0x00 (0000ms, 0525ms total)
T151C 002:269 JLINK_WriteReg(R2, 0x20000180)  returns 0x00 (0000ms, 0525ms total)
T151C 002:269 JLINK_WriteReg(R3, 0x00000000)  returns 0x00 (0000ms, 0525ms total)
T151C 002:269 JLINK_WriteReg(R4, 0x00000000)  returns 0x00 (0000ms, 0525ms total)
T151C 002:269 JLINK_WriteReg(R5, 0x00000000)  returns 0x00 (0000ms, 0525ms total)
T151C 002:269 JLINK_WriteReg(R6, 0x00000000)  returns 0x00 (0000ms, 0525ms total)
T151C 002:269 JLINK_WriteReg(R7, 0x00000000)  returns 0x00 (0000ms, 0525ms total)
T151C 002:269 JLINK_WriteReg(R8, 0x00000000)  returns 0x00 (0000ms, 0525ms total)
T151C 002:269 JLINK_WriteReg(R9, 0x2000017C)  returns 0x00 (0000ms, 0525ms total)
T151C 002:269 JLINK_WriteReg(R10, 0x00000000)  returns 0x00 (0000ms, 0525ms total)
T151C 002:269 JLINK_WriteReg(R11, 0x00000000)  returns 0x00 (0000ms, 0525ms total)
T151C 002:269 JLINK_WriteReg(R12, 0x00000000)  returns 0x00 (0000ms, 0525ms total)
T151C 002:269 JLINK_WriteReg(R13, 0x20000800)  returns 0x00 (0000ms, 0525ms total)
T151C 002:269 JLINK_WriteReg(R14, 0x20000001)  returns 0x00 (0000ms, 0525ms total)
T151C 002:270 JLINK_WriteReg(R15, 0x20000108)  returns 0x00 (0000ms, 0526ms total)
T151C 002:270 JLINK_WriteReg(XPSR, 0x01000000)  returns 0x00 (0000ms, 0526ms total)
T151C 002:270 JLINK_WriteReg(MSP, 0x20000800)  returns 0x00 (0000ms, 0526ms total)
T151C 002:270 JLINK_WriteReg(PSP, 0x20000800)  returns 0x00 (0000ms, 0526ms total)
T151C 002:270 JLINK_WriteReg(CFBP, 0x00000000)  returns 0x00 (0000ms, 0526ms total)
T151C 002:270 JLINK_SetBPEx(Addr = 0x20000000, Type = 0xFFFFFFF2)  returns 0x0000000C (0000ms, 0526ms total)
T151C 002:270 JLINK_Go() (0003ms, 0529ms total)
T151C 002:273 JLINK_IsHalted()  returns FALSE (0001ms, 0530ms total)
T151C 002:325 JLINK_IsHalted() -- CPU_ReadMem(2 bytes @ 0x20000000)  returns TRUE (0006ms, 0535ms total)
T151C 002:331 JLINK_ReadReg(R15)  returns 0x20000000 (0001ms, 0530ms total)
T151C 002:332 JLINK_ClrBPEx(BPHandle = 0x0000000C)  returns 0x00 (0000ms, 0530ms total)
T151C 002:332 JLINK_ReadReg(R0)  returns 0x00000000 (0000ms, 0530ms total)
T151C 002:333 JLINK_WriteMem(0x20000180, 0x0400 Bytes, ...) -- Data:  13 FF 40 F6 B8 31 03 20 06 F0 32 FA 7D 20 07 F0 ... -- CPU_WriteMem(1024 bytes @ 0x20000180)  returns 0x400 (0018ms, 0548ms total)
T151C 002:351 JLINK_WriteReg(R0, 0x08000400)  returns 0x00 (0000ms, 0548ms total)
T151C 002:351 JLINK_WriteReg(R1, 0x00000400)  returns 0x00 (0000ms, 0548ms total)
T151C 002:351 JLINK_WriteReg(R2, 0x20000180)  returns 0x00 (0000ms, 0548ms total)
T151C 002:351 JLINK_WriteReg(R3, 0x00000000)  returns 0x00 (0000ms, 0548ms total)
T151C 002:351 JLINK_WriteReg(R4, 0x00000000)  returns 0x00 (0000ms, 0548ms total)
T151C 002:351 JLINK_WriteReg(R5, 0x00000000)  returns 0x00 (0000ms, 0548ms total)
T151C 002:351 JLINK_WriteReg(R6, 0x00000000)  returns 0x00 (0001ms, 0549ms total)
T151C 002:352 JLINK_WriteReg(R7, 0x00000000)  returns 0x00 (0000ms, 0549ms total)
T151C 002:352 JLINK_WriteReg(R8, 0x00000000)  returns 0x00 (0000ms, 0549ms total)
T151C 002:352 JLINK_WriteReg(R9, 0x2000017C)  returns 0x00 (0000ms, 0549ms total)
T151C 002:352 JLINK_WriteReg(R10, 0x00000000)  returns 0x00 (0000ms, 0549ms total)
T151C 002:352 JLINK_WriteReg(R11, 0x00000000)  returns 0x00 (0000ms, 0549ms total)
T151C 002:352 JLINK_WriteReg(R12, 0x00000000)  returns 0x00 (0000ms, 0549ms total)
T151C 002:352 JLINK_WriteReg(R13, 0x20000800)  returns 0x00 (0000ms, 0549ms total)
T151C 002:352 JLINK_WriteReg(R14, 0x20000001)  returns 0x00 (0000ms, 0549ms total)
T151C 002:352 JLINK_WriteReg(R15, 0x20000108)  returns 0x00 (0000ms, 0549ms total)
T151C 002:352 JLINK_WriteReg(XPSR, 0x01000000)  returns 0x00 (0000ms, 0549ms total)
T151C 002:352 JLINK_WriteReg(MSP, 0x20000800)  returns 0x00 (0000ms, 0549ms total)
T151C 002:352 JLINK_WriteReg(PSP, 0x20000800)  returns 0x00 (0000ms, 0549ms total)
T151C 002:352 JLINK_WriteReg(CFBP, 0x00000000)  returns 0x00 (0000ms, 0549ms total)
T151C 002:352 JLINK_SetBPEx(Addr = 0x20000000, Type = 0xFFFFFFF2)  returns 0x0000000D (0001ms, 0550ms total)
T151C 002:353 JLINK_Go() (0002ms, 0552ms total)
T151C 002:356 JLINK_IsHalted()  returns FALSE (0001ms, 0554ms total)
T151C 002:408 JLINK_IsHalted() -- CPU_ReadMem(2 bytes @ 0x20000000)  returns TRUE (0006ms, 0559ms total)
T151C 002:414 JLINK_ReadReg(R15)  returns 0x20000000 (0000ms, 0553ms total)
T151C 002:414 JLINK_ClrBPEx(BPHandle = 0x0000000D)  returns 0x00 (0000ms, 0553ms total)
T151C 002:414 JLINK_ReadReg(R0)  returns 0x00000000 (0000ms, 0553ms total)
T151C 002:416 JLINK_WriteMem(0x20000180, 0x0400 Bytes, ...) -- Data:  0C F0 54 FB 2A D2 40 46 0C F0 FF F9 21 F0 00 41 ... -- CPU_WriteMem(1024 bytes @ 0x20000180)  returns 0x400 (0017ms, 0570ms total)
T151C 002:433 JLINK_WriteReg(R0, 0x08000800)  returns 0x00 (0000ms, 0570ms total)
T151C 002:433 JLINK_WriteReg(R1, 0x00000400)  returns 0x00 (0000ms, 0570ms total)
T151C 002:433 JLINK_WriteReg(R2, 0x20000180)  returns 0x00 (0000ms, 0570ms total)
T151C 002:434 JLINK_WriteReg(R3, 0x00000000)  returns 0x00 (0000ms, 0571ms total)
T151C 002:434 JLINK_WriteReg(R4, 0x00000000)  returns 0x00 (0000ms, 0571ms total)
T151C 002:434 JLINK_WriteReg(R5, 0x00000000)  returns 0x00 (0000ms, 0571ms total)
T151C 002:434 JLINK_WriteReg(R6, 0x00000000)  returns 0x00 (0000ms, 0571ms total)
T151C 002:434 JLINK_WriteReg(R7, 0x00000000)  returns 0x00 (0000ms, 0571ms total)
T151C 002:434 JLINK_WriteReg(R8, 0x00000000)  returns 0x00 (0000ms, 0571ms total)
T151C 002:434 JLINK_WriteReg(R9, 0x2000017C)  returns 0x00 (0000ms, 0571ms total)
T151C 002:434 JLINK_WriteReg(R10, 0x00000000)  returns 0x00 (0000ms, 0571ms total)
T151C 002:434 JLINK_WriteReg(R11, 0x00000000)  returns 0x00 (0000ms, 0571ms total)
T151C 002:434 JLINK_WriteReg(R12, 0x00000000)  returns 0x00 (0000ms, 0571ms total)
T151C 002:434 JLINK_WriteReg(R13, 0x20000800)  returns 0x00 (0001ms, 0572ms total)
T151C 002:435 JLINK_WriteReg(R14, 0x20000001)  returns 0x00 (0000ms, 0572ms total)
T151C 002:435 JLINK_WriteReg(R15, 0x20000108)  returns 0x00 (0000ms, 0572ms total)
T151C 002:435 JLINK_WriteReg(XPSR, 0x01000000)  returns 0x00 (0000ms, 0572ms total)
T151C 002:435 JLINK_WriteReg(MSP, 0x20000800)  returns 0x00 (0000ms, 0572ms total)
T151C 002:435 JLINK_WriteReg(PSP, 0x20000800)  returns 0x00 (0000ms, 0572ms total)
T151C 002:435 JLINK_WriteReg(CFBP, 0x00000000)  returns 0x00 (0000ms, 0572ms total)
T151C 002:435 JLINK_SetBPEx(Addr = 0x20000000, Type = 0xFFFFFFF2)  returns 0x0000000E (0000ms, 0572ms total)
T151C 002:435 JLINK_Go() (0003ms, 0575ms total)
T151C 002:438 JLINK_IsHalted()  returns FALSE (0001ms, 0576ms total)
T151C 002:490 JLINK_IsHalted() -- CPU_ReadMem(2 bytes @ 0x20000000)  returns TRUE (0007ms, 0582ms total)
T151C 002:497 JLINK_ReadReg(R15)  returns 0x20000000 (0000ms, 0575ms total)
T151C 002:497 JLINK_ClrBPEx(BPHandle = 0x0000000E)  returns 0x00 (0000ms, 0575ms total)
T151C 002:497 JLINK_ReadReg(R0)  returns 0x00000000 (0000ms, 0575ms total)
T151C 002:498 JLINK_WriteMem(0x20000180, 0x0400 Bytes, ...) -- Data:  1F 00 00 20 00 14 02 40 00 18 02 40 40 42 0F 00 ... -- CPU_WriteMem(1024 bytes @ 0x20000180)  returns 0x400 (0019ms, 0594ms total)
T151C 002:517 JLINK_WriteReg(R0, 0x08000C00)  returns 0x00 (0000ms, 0594ms total)
T151C 002:517 JLINK_WriteReg(R1, 0x00000400)  returns 0x00 (0000ms, 0594ms total)
T151C 002:517 JLINK_WriteReg(R2, 0x20000180)  returns 0x00 (0000ms, 0594ms total)
T151C 002:517 JLINK_WriteReg(R3, 0x00000000)  returns 0x00 (0000ms, 0594ms total)
T151C 002:517 JLINK_WriteReg(R4, 0x00000000)  returns 0x00 (0000ms, 0594ms total)
T151C 002:517 JLINK_WriteReg(R5, 0x00000000)  returns 0x00 (0000ms, 0594ms total)
T151C 002:517 JLINK_WriteReg(R6, 0x00000000)  returns 0x00 (0001ms, 0595ms total)
T151C 002:518 JLINK_WriteReg(R7, 0x00000000)  returns 0x00 (0000ms, 0595ms total)
T151C 002:518 JLINK_WriteReg(R8, 0x00000000)  returns 0x00 (0000ms, 0595ms total)
T151C 002:518 JLINK_WriteReg(R9, 0x2000017C)  returns 0x00 (0000ms, 0595ms total)
T151C 002:518 JLINK_WriteReg(R10, 0x00000000)  returns 0x00 (0000ms, 0595ms total)
T151C 002:518 JLINK_WriteReg(R11, 0x00000000)  returns 0x00 (0000ms, 0595ms total)
T151C 002:518 JLINK_WriteReg(R12, 0x00000000)  returns 0x00 (0000ms, 0595ms total)
T151C 002:518 JLINK_WriteReg(R13, 0x20000800)  returns 0x00 (0000ms, 0595ms total)
T151C 002:518 JLINK_WriteReg(R14, 0x20000001)  returns 0x00 (0000ms, 0595ms total)
T151C 002:518 JLINK_WriteReg(R15, 0x20000108)  returns 0x00 (0000ms, 0595ms total)
T151C 002:518 JLINK_WriteReg(XPSR, 0x01000000)  returns 0x00 (0000ms, 0595ms total)
T151C 002:518 JLINK_WriteReg(MSP, 0x20000800)  returns 0x00 (0000ms, 0595ms total)
T151C 002:518 JLINK_WriteReg(PSP, 0x20000800)  returns 0x00 (0000ms, 0595ms total)
T151C 002:518 JLINK_WriteReg(CFBP, 0x00000000)  returns 0x00 (0000ms, 0595ms total)
T151C 002:519 JLINK_SetBPEx(Addr = 0x20000000, Type = 0xFFFFFFF2)  returns 0x0000000F (0000ms, 0596ms total)
T151C 002:519 JLINK_Go() (0002ms, 0598ms total)
T151C 002:521 JLINK_IsHalted()  returns FALSE (0001ms, 0599ms total)
T151C 002:573 JLINK_IsHalted() -- CPU_ReadMem(2 bytes @ 0x20000000)  returns TRUE (0006ms, 0604ms total)
T151C 002:579 JLINK_ReadReg(R15)  returns 0x20000000 (0000ms, 0598ms total)
T151C 002:579 JLINK_ClrBPEx(BPHandle = 0x0000000F)  returns 0x00 (0000ms, 0598ms total)
T151C 002:579 JLINK_ReadReg(R0)  returns 0x00000000 (0000ms, 0598ms total)
T151C 002:580 JLINK_WriteMem(0x20000180, 0x0400 Bytes, ...) -- Data:  91 48 06 F0 98 FC 91 49 08 70 08 46 01 78 90 48 ... -- CPU_WriteMem(1024 bytes @ 0x20000180)  returns 0x400 (0018ms, 0616ms total)
T151C 002:598 JLINK_WriteReg(R0, 0x08001000)  returns 0x00 (0000ms, 0616ms total)
T151C 002:598 JLINK_WriteReg(R1, 0x00000400)  returns 0x00 (0000ms, 0616ms total)
T151C 002:598 JLINK_WriteReg(R2, 0x20000180)  returns 0x00 (0000ms, 0616ms total)
T151C 002:598 JLINK_WriteReg(R3, 0x00000000)  returns 0x00 (0001ms, 0617ms total)
T151C 002:599 JLINK_WriteReg(R4, 0x00000000)  returns 0x00 (0000ms, 0617ms total)
T151C 002:599 JLINK_WriteReg(R5, 0x00000000)  returns 0x00 (0000ms, 0617ms total)
T151C 002:599 JLINK_WriteReg(R6, 0x00000000)  returns 0x00 (0000ms, 0617ms total)
T151C 002:599 JLINK_WriteReg(R7, 0x00000000)  returns 0x00 (0000ms, 0617ms total)
T151C 002:599 JLINK_WriteReg(R8, 0x00000000)  returns 0x00 (0000ms, 0617ms total)
T151C 002:599 JLINK_WriteReg(R9, 0x2000017C)  returns 0x00 (0000ms, 0617ms total)
T151C 002:599 JLINK_WriteReg(R10, 0x00000000)  returns 0x00 (0000ms, 0617ms total)
T151C 002:599 JLINK_WriteReg(R11, 0x00000000)  returns 0x00 (0000ms, 0617ms total)
T151C 002:599 JLINK_WriteReg(R12, 0x00000000)  returns 0x00 (0001ms, 0618ms total)
T151C 002:600 JLINK_WriteReg(R13, 0x20000800)  returns 0x00 (0000ms, 0618ms total)
T151C 002:600 JLINK_WriteReg(R14, 0x20000001)  returns 0x00 (0000ms, 0618ms total)
T151C 002:600 JLINK_WriteReg(R15, 0x20000108)  returns 0x00 (0000ms, 0618ms total)
T151C 002:600 JLINK_WriteReg(XPSR, 0x01000000)  returns 0x00 (0000ms, 0618ms total)
T151C 002:600 JLINK_WriteReg(MSP, 0x20000800)  returns 0x00 (0000ms, 0618ms total)
T151C 002:600 JLINK_WriteReg(PSP, 0x20000800)  returns 0x00 (0000ms, 0618ms total)
T151C 002:600 JLINK_WriteReg(CFBP, 0x00000000)  returns 0x00 (0000ms, 0618ms total)
T151C 002:600 JLINK_SetBPEx(Addr = 0x20000000, Type = 0xFFFFFFF2)  returns 0x00000010 (0000ms, 0618ms total)
T151C 002:600 JLINK_Go() (0003ms, 0621ms total)
T151C 002:603 JLINK_IsHalted()  returns FALSE (0001ms, 0622ms total)
T151C 002:656 JLINK_IsHalted() -- CPU_ReadMem(2 bytes @ 0x20000000)  returns TRUE (0006ms, 0627ms total)
T151C 002:662 JLINK_ReadReg(R15)  returns 0x20000000 (0000ms, 0621ms total)
T151C 002:662 JLINK_ClrBPEx(BPHandle = 0x00000010)  returns 0x00 (0000ms, 0621ms total)
T151C 002:662 JLINK_ReadReg(R0)  returns 0x00000000 (0000ms, 0621ms total)
T151C 002:664 JLINK_WriteMem(0x20000180, 0x0400 Bytes, ...) -- Data:  01 23 1A 46 0C 21 15 48 4C 38 05 F0 23 FE 01 23 ... -- CPU_WriteMem(1024 bytes @ 0x20000180)  returns 0x400 (0018ms, 0639ms total)
T151C 002:682 JLINK_WriteReg(R0, 0x08001400)  returns 0x00 (0000ms, 0639ms total)
T151C 002:682 JLINK_WriteReg(R1, 0x00000400)  returns 0x00 (0000ms, 0639ms total)
T151C 002:682 JLINK_WriteReg(R2, 0x20000180)  returns 0x00 (0000ms, 0639ms total)
T151C 002:682 JLINK_WriteReg(R3, 0x00000000)  returns 0x00 (0000ms, 0639ms total)
T151C 002:682 JLINK_WriteReg(R4, 0x00000000)  returns 0x00 (0000ms, 0639ms total)
T151C 002:682 JLINK_WriteReg(R5, 0x00000000)  returns 0x00 (0000ms, 0639ms total)
T151C 002:682 JLINK_WriteReg(R6, 0x00000000)  returns 0x00 (0000ms, 0639ms total)
T151C 002:682 JLINK_WriteReg(R7, 0x00000000)  returns 0x00 (0001ms, 0640ms total)
T151C 002:683 JLINK_WriteReg(R8, 0x00000000)  returns 0x00 (0000ms, 0640ms total)
T151C 002:683 JLINK_WriteReg(R9, 0x2000017C)  returns 0x00 (0000ms, 0640ms total)
T151C 002:683 JLINK_WriteReg(R10, 0x00000000)  returns 0x00 (0000ms, 0640ms total)
T151C 002:683 JLINK_WriteReg(R11, 0x00000000)  returns 0x00 (0000ms, 0640ms total)
T151C 002:683 JLINK_WriteReg(R12, 0x00000000)  returns 0x00 (0000ms, 0640ms total)
T151C 002:683 JLINK_WriteReg(R13, 0x20000800)  returns 0x00 (0000ms, 0640ms total)
T151C 002:683 JLINK_WriteReg(R14, 0x20000001)  returns 0x00 (0000ms, 0640ms total)
T151C 002:683 JLINK_WriteReg(R15, 0x20000108)  returns 0x00 (0000ms, 0640ms total)
T151C 002:683 JLINK_WriteReg(XPSR, 0x01000000)  returns 0x00 (0001ms, 0641ms total)
T151C 002:684 JLINK_WriteReg(MSP, 0x20000800)  returns 0x00 (0000ms, 0641ms total)
T151C 002:684 JLINK_WriteReg(PSP, 0x20000800)  returns 0x00 (0000ms, 0641ms total)
T151C 002:684 JLINK_WriteReg(CFBP, 0x00000000)  returns 0x00 (0000ms, 0641ms total)
T151C 002:684 JLINK_SetBPEx(Addr = 0x20000000, Type = 0xFFFFFFF2)  returns 0x00000011 (0000ms, 0641ms total)
T151C 002:684 JLINK_Go() (0003ms, 0644ms total)
T151C 002:687 JLINK_IsHalted()  returns FALSE (0001ms, 0645ms total)
T151C 002:738 JLINK_IsHalted() -- CPU_ReadMem(2 bytes @ 0x20000000)  returns TRUE (0006ms, 0650ms total)
T151C 002:744 JLINK_ReadReg(R15)  returns 0x20000000 (0001ms, 0645ms total)
T151C 002:745 JLINK_ClrBPEx(BPHandle = 0x00000011)  returns 0x00 (0000ms, 0645ms total)
T151C 002:745 JLINK_ReadReg(R0)  returns 0x00000000 (0000ms, 0645ms total)
T151C 002:746 JLINK_WriteMem(0x20000180, 0x0400 Bytes, ...) -- Data:  05 21 F4 48 06 F0 51 FD 0C 22 06 21 F1 48 06 F0 ... -- CPU_WriteMem(1024 bytes @ 0x20000180)  returns 0x400 (0018ms, 0663ms total)
T151C 002:764 JLINK_WriteReg(R0, 0x08001800)  returns 0x00 (0000ms, 0663ms total)
T151C 002:764 JLINK_WriteReg(R1, 0x00000400)  returns 0x00 (0000ms, 0663ms total)
T151C 002:764 JLINK_WriteReg(R2, 0x20000180)  returns 0x00 (0000ms, 0663ms total)
T151C 002:764 JLINK_WriteReg(R3, 0x00000000)  returns 0x00 (0000ms, 0663ms total)
T151C 002:764 JLINK_WriteReg(R4, 0x00000000)  returns 0x00 (0000ms, 0663ms total)
T151C 002:764 JLINK_WriteReg(R5, 0x00000000)  returns 0x00 (0000ms, 0663ms total)
T151C 002:764 JLINK_WriteReg(R6, 0x00000000)  returns 0x00 (0001ms, 0664ms total)
T151C 002:765 JLINK_WriteReg(R7, 0x00000000)  returns 0x00 (0000ms, 0664ms total)
T151C 002:765 JLINK_WriteReg(R8, 0x00000000)  returns 0x00 (0000ms, 0664ms total)
T151C 002:765 JLINK_WriteReg(R9, 0x2000017C)  returns 0x00 (0000ms, 0664ms total)
T151C 002:765 JLINK_WriteReg(R10, 0x00000000)  returns 0x00 (0000ms, 0664ms total)
T151C 002:765 JLINK_WriteReg(R11, 0x00000000)  returns 0x00 (0000ms, 0664ms total)
T151C 002:765 JLINK_WriteReg(R12, 0x00000000)  returns 0x00 (0000ms, 0664ms total)
T151C 002:765 JLINK_WriteReg(R13, 0x20000800)  returns 0x00 (0000ms, 0664ms total)
T151C 002:765 JLINK_WriteReg(R14, 0x20000001)  returns 0x00 (0000ms, 0664ms total)
T151C 002:765 JLINK_WriteReg(R15, 0x20000108)  returns 0x00 (0000ms, 0664ms total)
T151C 002:765 JLINK_WriteReg(XPSR, 0x01000000)  returns 0x00 (0000ms, 0664ms total)
T151C 002:765 JLINK_WriteReg(MSP, 0x20000800)  returns 0x00 (0000ms, 0664ms total)
T151C 002:765 JLINK_WriteReg(PSP, 0x20000800)  returns 0x00 (0000ms, 0664ms total)
T151C 002:765 JLINK_WriteReg(CFBP, 0x00000000)  returns 0x00 (0000ms, 0664ms total)
